T16F4 102:627 SEGGER J-Link V6.46 Log File (0000ms, 1928ms total)
T16F4 102:627 DLL Compiled: May 23 2019 17:49:56 (0001ms, 1929ms total)
T16F4 102:627 Logging started @ 2019-12-12 14:24 (0001ms, 1929ms total)
T16F4 102:628 JLINK_SetWarnOutHandler(...) (0000ms, 1929ms total)
T16F4 102:628 JLINK_OpenEx(...)
Firmware: J-Link V9 compiled May 17 2019 09:50:41
Hardware: V9.20
Feature(s): JFlash, FlashDL, FlashBP, RDI, GDB, RDDI
TELNET listener socket opened on port 19021Device "CORTEX-M7" selected.WEBSRV 
Starting webserver (0074ms, 2003ms total)
T16F4 102:628 WEBSRV Webserver running on local port 19080 (0074ms, 2003ms total)
T16F4 102:628   returns O.K. (0074ms, 2003ms total)
T16F4 102:703 JLINK_GetEmuCaps()  returns 0xB9FF7BBF (0000ms, 2003ms total)
T16F4 102:703 JLINK_TIF_GetAvailable(...) (0000ms, 2003ms total)
T16F4 102:703 JLINK_SetErrorOutHandler(...) (0000ms, 2003ms total)
T16F4 102:703 JLINK_ExecCommand("ProjectFile = "C:\Users\63239\Desktop\SCWJ\IMXRT1052IAR8.2\IMXRT1052\Example\example\mdk\JLinkSettings.ini"", ...). Device "CORTEX-M7" selected.  returns 0x00 (0020ms, 2023ms total)
T16F4 102:723 JLINK_ExecCommand("Device = MIMXRT1052DVL6B", ...). Device "CORTEX-M7" selected.  returns 0x00 (0006ms, 2029ms total)
T16F4 102:729 JLINK_ExecCommand("DisableConnectionTimeout", ...).   returns 0x01 (0000ms, 2029ms total)
T16F4 102:729 JLINK_GetHardwareVersion()  returns 0x16760 (0000ms, 2029ms total)
T16F4 102:729 JLINK_GetDLLVersion()  returns 64600 (0000ms, 2029ms total)
T16F4 102:729 JLINK_GetFirmwareString(...) (0000ms, 2029ms total)
T16F4 102:730 JLINK_GetDLLVersion()  returns 64600 (0000ms, 2029ms total)
T16F4 102:730 JLINK_GetCompileDateTime() (0000ms, 2029ms total)
T16F4 102:730 JLINK_GetFirmwareString(...) (0000ms, 2029ms total)
T16F4 102:730 JLINK_GetHardwareVersion()  returns 0x16760 (0000ms, 2029ms total)
T16F4 102:730 JLINK_TIF_Select(JLINKARM_TIF_SWD)  returns 0x00 (0003ms, 2032ms total)
T16F4 102:733 JLINK_SetSpeed(20000) (0001ms, 2033ms total)
T16F4 102:734 JLINK_GetId() >0x10B TIF>Found SW-DP with ID 0x0BD11477 >0x0D TIF> >0x28 TIF> >0x0D TIF> >0x28 TIF> >0x0D TIF> >0x28 TIF> >0x0D TIF> >0x28 TIF> >0x0D TIF> >0x21 TIF> >0x0D TIF> >0x28 TIF>Scanning AP map to find all available APs >0x0D TIF> >0x28 TIF> >0x0D TIF> >0x21 TIF> >0x0D TIF> >0x21 TIF> >0x0D TIF> >0x28 TIF> >0x0D TIF> >0x21 TIF> >0x0D TIF> >0x21 TIF>AP[1]: Stopped AP scan as end of AP map has been reachedAP[0]: AHB-AP (IDR: 0x04770041)Iterating through AP map to find AHB-AP to use
 >0x42 TIF> >0x28 TIF> >0x0D TIF> >0x28 TIF> >0x0D TIF> >0x21 TIF> >0x0D TIF> >0x21 TIF> >0x42 TIF> >0x28 TIF> >0x0D TIF> >0x28 TIF> >0x0D TIF> >0x28 TIF> >0x0D TIF> >0x21 TIF> >0x0D TIF> >0x21 TIF>AP[0]: Core foundAP[0]: AHB-AP ROM base: 0xE00FD000 >0x0D TIF> >0x28 TIF> >0x0D TIF> >0x28 TIF> >0x0D TIF> >0x28 TIF> >0x0D TIF> >0x21 TIF> >0x0D TIF> >0x21 TIF>CPUID register: 0x411FC271. Implementer code: 0x41 (ARM)Found Cortex-M7 r1p1, Little endian. -- Max. mem block: 0x00010F28
 -- CPU_ReadMem(4 bytes @ 0xE000EDF0) -- CPU_WriteMem(4 bytes @ 0xE000EDF0) -- CPU_ReadMem(4 bytes @ 0xE0002000)FPUnit: 8 code (BP) slots and 0 literal slots -- CPU_ReadMem(4 bytes @ 0xE000EDFC) -- CPU_WriteMem(4 bytes @ 0xE000EDFC) -- CPU_ReadMem(4 bytes @ 0xE0001000) -- CPU_WriteMem(4 bytes @ 0xE0001000) -- CPU_ReadMem(4 bytes @ 0xE000ED88) -- CPU_WriteMem(4 bytes @ 0xE000ED88) -- CPU_ReadMem(4 bytes @ 0xE000ED88) -- CPU_WriteMem(4 bytes @ 0xE000ED88)CoreSight components:ROMTbl[0] @ E00FD000
 -- CPU_ReadMem(16 bytes @ 0xE00FD000) -- CPU_ReadMem(16 bytes @ 0xE00FEFF0) -- CPU_ReadMem(16 bytes @ 0xE00FEFE0)ROMTbl[0][0]: E00FE000, CID: B105100D, PID: 000BB4C8 ROM TableROMTbl[1] @ E00FE000 -- CPU_ReadMem(16 bytes @ 0xE00FE000) -- CPU_ReadMem(16 bytes @ 0xE00FFFF0) -- CPU_ReadMem(16 bytes @ 0xE00FFFE0)ROMTbl[1][0]: E00FF000, CID: B105100D, PID: 000BB4C7 ROM TableROMTbl[2] @ E00FF000 -- CPU_ReadMem(16 bytes @ 0xE00FF000) -- CPU_ReadMem(16 bytes @ 0xE000EFF0) -- CPU_ReadMem(16 bytes @ 0xE000EFE0)
ROMTbl[2][0]: E000E000, CID: B105E00D, PID: 000BB00C SCS-M7 -- CPU_ReadMem(16 bytes @ 0xE0001FF0) -- CPU_ReadMem(16 bytes @ 0xE0001FE0)ROMTbl[2][1]: E0001000, CID: B105E00D, PID: 000BB002 DWT -- CPU_ReadMem(16 bytes @ 0xE0002FF0) -- CPU_ReadMem(16 bytes @ 0xE0002FE0)ROMTbl[2][2]: E0002000, CID: B105E00D, PID: 000BB00E FPB-M7 -- CPU_ReadMem(16 bytes @ 0xE0000FF0) -- CPU_ReadMem(16 bytes @ 0xE0000FE0)ROMTbl[2][3]: E0000000, CID: B105E00D, PID: 000BB001 ITM -- CPU_ReadMem(16 bytes @ 0xE00FF010)
 -- CPU_ReadMem(16 bytes @ 0xE0041FF0) -- CPU_ReadMem(16 bytes @ 0xE0041FE0)ROMTbl[1][1]: E0041000, CID: B105900D, PID: 001BB975 ETM-M7 -- CPU_ReadMem(16 bytes @ 0xE0042FF0) -- CPU_ReadMem(16 bytes @ 0xE0042FE0)ROMTbl[1][2]: E0042000, CID: B105900D, PID: 004BB906 CTI -- CPU_ReadMem(16 bytes @ 0xE00FE010) -- CPU_ReadMem(16 bytes @ 0xE0040FF0) -- CPU_ReadMem(16 bytes @ 0xE0040FE0)ROMTbl[0][1]: E0040000, CID: B105900D, PID: 000BB9A9 TPIU-M7 -- CPU_ReadMem(16 bytes @ 0xE0043FF0)
 -- CPU_ReadMem(16 bytes @ 0xE0043FE0)ROMTbl[0][2]: E0043000, CID: B105F00D, PID: 001BB101 TSG -- CPU_ReadMem(16 bytes @ 0xE00FD010) -- CPU_ReadMem(4 bytes @ 0xE000ED78)Cache: Separate I- and D-cache. (0129ms, 2162ms total)
T16F4 102:734  -- CPU_WriteMem(4 bytes @ 0xE000ED84) -- CPU_ReadMem(4 bytes @ 0xE000ED80)I-Cache L1: 32 KB, 512 Sets, 32 Bytes/Line, 2-Way -- CPU_WriteMem(4 bytes @ 0xE000ED84) -- CPU_ReadMem(4 bytes @ 0xE000ED80)D-Cache L1: 32 KB, 256 Sets, 32 Bytes/Line, 4-Way >0x0D TIF> >0x21 TIF>  returns 0x0BD11477 (0131ms, 2164ms total)
T16F4 102:865 JLINK_GetDLLVersion()  returns 64600 (0000ms, 2164ms total)
T16F4 102:865 JLINK_CORE_GetFound()  returns 0xE0100FF (0000ms, 2164ms total)
T16F4 102:865 JLINK_GetDebugInfo(0x100 = JLINKARM_ROM_TABLE_ADDR_INDEX) -- Value=0xE00FD000  returns 0x00 (0000ms, 2164ms total)
T16F4 102:865 JLINK_GetDebugInfo(0x100 = JLINKARM_ROM_TABLE_ADDR_INDEX) -- Value=0xE00FD000  returns 0x00 (0000ms, 2164ms total)
T16F4 102:865 JLINK_GetDebugInfo(0x101 = JLINKARM_DEBUG_INFO_ETM_ADDR_INDEX) -- Value=0xE0041000  returns 0x00 (0001ms, 2165ms total)
T16F4 102:866 JLINK_ReadMemEx(0xE0041FD0, 0x0020 Bytes, ..., Flags = 0x02000004) -- CPU_ReadMem(32 bytes @ 0xE0041FD0) - Data: 04 00 00 00 00 00 00 00 00 00 00 00 00 00 00 00 ...  returns 0x20 (0000ms, 2165ms total)
T16F4 102:866 JLINK_GetDebugInfo(0x102 = JLINKARM_DEBUG_INFO_MTB_ADDR_INDEX) -- Value=0x00000000  returns 0x00 (0000ms, 2165ms total)
T16F4 102:866 JLINK_GetDebugInfo(0x103 = JLINKARM_DEBUG_INFO_TPIU_ADDR_INDEX) -- Value=0xE0040000  returns 0x00 (0000ms, 2165ms total)
T16F4 102:866 JLINK_GetDebugInfo(0x104 = JLINKARM_DEBUG_INFO_ITM_ADDR_INDEX) -- Value=0xE0000000  returns 0x00 (0001ms, 2166ms total)
T16F4 102:867 JLINK_GetDebugInfo(0x105 = JLINKARM_DEBUG_INFO_DWT_ADDR_INDEX) -- Value=0xE0001000  returns 0x00 (0000ms, 2166ms total)
T16F4 102:867 JLINK_GetDebugInfo(0x106 = JLINKARM_DEBUG_INFO_FPB_ADDR_INDEX) -- Value=0xE0002000  returns 0x00 (0000ms, 2166ms total)
T16F4 102:867 JLINK_GetDebugInfo(0x107 = JLINKARM_DEBUG_INFO_NVIC_ADDR_INDEX) -- Value=0xE000E000  returns 0x00 (0000ms, 2166ms total)
T16F4 102:867 JLINK_GetDebugInfo(0x10C = JLINKARM_DEBUG_INFO_DBG_ADDR_INDEX) -- Value=0xE000EDF0  returns 0x00 (0000ms, 2166ms total)
T16F4 102:867 JLINK_GetDebugInfo(0x01 = Unknown) -- Value=0x00000001  returns 0x00 (0000ms, 2166ms total)
T16F4 102:867 JLINK_ReadMemU32(0xE000ED00, 0x0001 Items, ...) -- CPU_ReadMem(4 bytes @ 0xE000ED00) - Data: 71 C2 1F 41  returns 1 (0001ms, 2167ms total)
T16F4 102:868 JLINK_GetDebugInfo(0x10F = JLINKARM_DEBUG_INFO_HAS_CORTEX_M_SECURITY_EXT_INDEX) -- Value=0x00000000  returns 0x00 (0000ms, 2167ms total)
T16F4 102:868 JLINK_SetResetType(JLINKARM_CM3_RESET_TYPE_NORMAL)  returns JLINKARM_CM3_RESET_TYPE_NORMAL (0000ms, 2167ms total)
T16F4 102:868 JLINK_Reset() -- CPU is running -- CPU_WriteMem(4 bytes @ 0xE000EDF0) -- CPU is running -- CPU_WriteMem(4 bytes @ 0xE000EDFC)Reset: Halt core after reset via DEMCR.VC_CORERESET. >0x35 TIF>Reset: Reset device via AIRCR.SYSRESETREQ. -- CPU is running -- CPU_WriteMem(4 bytes @ 0xE000ED0C) >0x0D TIF> >0x28 TIF> -- CPU_ReadMem(4 bytes @ 0xE000EDF0) -- CPU_ReadMem(4 bytes @ 0xE000EDF0) -- CPU is running -- CPU_WriteMem(4 bytes @ 0xE000EDF0) -- CPU is running -- CPU_WriteMem(4 bytes @ 0xE000EDFC)
 -- CPU_ReadMem(4 bytes @ 0xE000EDF0) -- CPU_WriteMem(4 bytes @ 0xE0002000) -- CPU_ReadMem(4 bytes @ 0xE000EDFC) -- CPU_ReadMem(4 bytes @ 0xE0001000) (0165ms, 2332ms total)
T16F4 103:033 JLINK_ReadReg(R15 (PC))  returns 0x00201414 (0000ms, 2332ms total)
T16F4 103:033 JLINK_ReadReg(XPSR)  returns 0x01000000 (0000ms, 2332ms total)
T16F4 103:033 JLINK_Halt()  returns 0x00 (0000ms, 2332ms total)
T16F4 103:033 JLINK_ReadMemU32(0xE000EDF0, 0x0001 Items, ...) -- CPU_ReadMem(4 bytes @ 0xE000EDF0) - Data: 03 00 03 00  returns 1 (0001ms, 2333ms total)
T16F4 103:034 JLINK_WriteU32(0xE000EDF0, 0xA05F0003) -- CPU_WriteMem(4 bytes @ 0xE000EDF0)  returns 0 (0000ms, 2333ms total)
T16F4 103:034 JLINK_WriteU32(0xE000EDFC, 0x01000000) -- CPU_WriteMem(4 bytes @ 0xE000EDFC)  returns 0 (0001ms, 2334ms total)
T16F4 103:035 JLINK_GetHWStatus(...)  returns 0x00 (0000ms, 2334ms total)
T16F4 103:035 JLINK_GetNumBPUnits(Type = 0xFFFFFF00)  returns 0x08 (0000ms, 2334ms total)
T16F4 103:035 JLINK_GetNumBPUnits(Type = 0xF0)  returns 0x2000 (0000ms, 2334ms total)
T16F4 103:035 JLINK_GetNumWPUnits()  returns 0x04 (0000ms, 2334ms total)
T16F4 103:035 JLINK_GetSpeed()  returns 0x2EE0 (0001ms, 2335ms total)
T16F4 103:036 JLINK_ReadMemU32(0xE000E004, 0x0001 Items, ...) -- CPU_ReadMem(4 bytes @ 0xE000E004) - Data: 04 00 00 00  returns 1 (0000ms, 2335ms total)
T16F4 103:036 JLINK_ReadMemU32(0xE000E004, 0x0001 Items, ...) -- CPU_ReadMem(4 bytes @ 0xE000E004) - Data: 04 00 00 00  returns 1 (0001ms, 2336ms total)
T16F4 103:037 JLINK_WriteMemEx(0xE0001000, 0x001C Bytes, ..., Flags = 0x02000004) - Data: 01 00 00 00 00 00 00 00 00 00 00 00 00 00 00 00 ... -- CPU_WriteMem(28 bytes @ 0xE0001000)  returns 0x1C (0001ms, 2337ms total)
T16F4 103:038 JLINK_ReadReg(R15 (PC))  returns 0x00201414 (0001ms, 2338ms total)
T16F4 103:039 JLINK_ReadReg(XPSR)  returns 0x01000000 (0000ms, 2338ms total)
T16F4 103:064 JLINK_ReadMemEx(0xE0001004, 0x0004 Bytes, ..., Flags = 0x02000000) - Data: 00 00 00 00  returns 0x04 (0000ms, 2338ms total)
T16F4 103:214 JLINK_SetResetType(JLINKARM_CM3_RESET_TYPE_NORMAL)  returns JLINKARM_CM3_RESET_TYPE_NORMAL (0000ms, 2338ms total)
T16F4 103:214 JLINK_Reset() -- CPU_WriteMem(4 bytes @ 0xE000EDF0) -- CPU_WriteMem(4 bytes @ 0xE000EDFC)Reset: Halt core after reset via DEMCR.VC_CORERESET. >0x35 TIF>Reset: Reset device via AIRCR.SYSRESETREQ. -- CPU_WriteMem(4 bytes @ 0xE000ED0C) >0x0D TIF> >0x28 TIF> -- CPU_ReadMem(4 bytes @ 0xE000EDF0) -- CPU_ReadMem(4 bytes @ 0xE000EDF0) -- CPU_WriteMem(4 bytes @ 0xE000EDF0) -- CPU_WriteMem(4 bytes @ 0xE000EDFC) -- CPU_ReadMem(4 bytes @ 0xE000EDF0) -- CPU_WriteMem(4 bytes @ 0xE0002000)
 -- CPU_ReadMem(4 bytes @ 0xE000EDFC) -- CPU_ReadMem(4 bytes @ 0xE0001000) (0163ms, 2501ms total)
T16F4 103:377 JLINK_ReadReg(R15 (PC))  returns 0x00201414 (0000ms, 2501ms total)
T16F4 103:377 JLINK_ReadReg(XPSR)  returns 0x01000000 (0000ms, 2501ms total)
T16F4 103:377 JLINK_ReadReg(R0)  returns 0x00000000 (0001ms, 2502ms total)
T16F4 103:378 JLINK_ReadReg(R1)  returns 0x00000000 (0000ms, 2502ms total)
T16F4 103:378 JLINK_ReadReg(R2)  returns 0x00000000 (0000ms, 2502ms total)
T16F4 103:378 JLINK_ReadReg(R3)  returns 0x00000000 (0000ms, 2502ms total)
T16F4 103:378 JLINK_ReadReg(R4)  returns 0x00000000 (0000ms, 2502ms total)
T16F4 103:378 JLINK_ReadMemU32(0xE0001004, 0x0001 Items, ...) - Data: 00 00 00 00  returns 1 (0000ms, 2502ms total)
T16F4 103:378 JLINK_ReadMemEx(0x00201414, 0x003C Bytes, ..., Flags = 0x02000000) -- CPU_ReadMem(60 bytes @ 0x00201414) - Data: 72 B6 0D 48 80 47 0D 48 0D 49 01 60 0D 48 80 47 ...  returns 0x3C (0001ms, 2503ms total)
T16F4 103:379 JLINK_ReadMemEx(0x00201414, 0x0002 Bytes, ..., Flags = 0x02000000) -- CPU_ReadMem(2 bytes @ 0x00201414) - Data: 72 B6  returns 0x02 (0000ms, 2503ms total)
T16F4 103:379 JLINK_ReadMemEx(0x00201416, 0x0002 Bytes, ..., Flags = 0x02000000) -- CPU_ReadMem(2 bytes @ 0x00201416) - Data: 0D 48  returns 0x02 (0000ms, 2503ms total)
T16F4 103:380 JLINK_ReadMemEx(0x00201416, 0x0002 Bytes, ..., Flags = 0x02000000) -- CPU_ReadMem(2 bytes @ 0x00201416) - Data: 0D 48  returns 0x02 (0000ms, 2503ms total)
T16F4 103:380 JLINK_ReadMemEx(0x00201418, 0x003C Bytes, ..., Flags = 0x02000000) -- CPU_ReadMem(60 bytes @ 0x00201418) - Data: 80 47 0D 48 0D 49 01 60 0D 48 80 47 0D 48 01 68 ...  returns 0x3C (0001ms, 2504ms total)
T16F4 103:381 JLINK_ReadMemEx(0x00201418, 0x0002 Bytes, ..., Flags = 0x02000000) -- CPU_ReadMem(2 bytes @ 0x00201418) - Data: 80 47  returns 0x02 (0000ms, 2504ms total)
T16F4 103:381 JLINK_ReadMemEx(0x00201418, 0x003C Bytes, ..., Flags = 0x02000000) -- CPU_ReadMem(60 bytes @ 0x00201418) - Data: 80 47 0D 48 0D 49 01 60 0D 48 80 47 0D 48 01 68 ...  returns 0x3C (0001ms, 2505ms total)
T16F4 103:382 JLINK_ReadMemEx(0x00201418, 0x0002 Bytes, ..., Flags = 0x02000000) -- CPU_ReadMem(2 bytes @ 0x00201418) - Data: 80 47  returns 0x02 (0000ms, 2505ms total)
T16F4 103:382 JLINK_ReadMemEx(0x0020141A, 0x0002 Bytes, ..., Flags = 0x02000000) -- CPU_ReadMem(2 bytes @ 0x0020141A) - Data: 0D 48  returns 0x02 (0000ms, 2505ms total)
T16F4 103:382 JLINK_ReadMemEx(0x0020141A, 0x0002 Bytes, ..., Flags = 0x02000000) -- CPU_ReadMem(2 bytes @ 0x0020141A) - Data: 0D 48  returns 0x02 (0001ms, 2506ms total)
T16F4 103:383 JLINK_ReadMemEx(0x0020141C, 0x003C Bytes, ..., Flags = 0x02000000) -- CPU_ReadMem(60 bytes @ 0x0020141C) - Data: 0D 49 01 60 0D 48 80 47 0D 48 01 68 41 F0 10 01 ...  returns 0x3C (0000ms, 2506ms total)
T16F4 103:383 JLINK_ReadMemEx(0x0020141C, 0x0002 Bytes, ..., Flags = 0x02000000) -- CPU_ReadMem(2 bytes @ 0x0020141C) - Data: 0D 49  returns 0x02 (0000ms, 2506ms total)
T16F4 103:383 JLINK_ReadMemEx(0x0020141C, 0x003C Bytes, ..., Flags = 0x02000000) -- CPU_ReadMem(60 bytes @ 0x0020141C) - Data: 0D 49 01 60 0D 48 80 47 0D 48 01 68 41 F0 10 01 ...  returns 0x3C (0001ms, 2507ms total)
T16F4 103:384 JLINK_ReadMemEx(0x0020141C, 0x0002 Bytes, ..., Flags = 0x02000000) -- CPU_ReadMem(2 bytes @ 0x0020141C) - Data: 0D 49  returns 0x02 (0000ms, 2507ms total)
T16F4 103:384 JLINK_ReadMemEx(0x0020141E, 0x0002 Bytes, ..., Flags = 0x02000000) -- CPU_ReadMem(2 bytes @ 0x0020141E) - Data: 01 60  returns 0x02 (0001ms, 2508ms total)
T16F4 103:385 JLINK_ReadMemEx(0x0020141E, 0x0002 Bytes, ..., Flags = 0x02000000) -- CPU_ReadMem(2 bytes @ 0x0020141E) - Data: 01 60  returns 0x02 (0000ms, 2508ms total)
T16F4 103:385 JLINK_ReadMemEx(0x00201420, 0x003C Bytes, ..., Flags = 0x02000000) -- CPU_ReadMem(60 bytes @ 0x00201420) - Data: 0D 48 80 47 0D 48 01 68 41 F0 10 01 01 60 62 B6 ...  returns 0x3C (0000ms, 2508ms total)
T16F4 103:385 JLINK_ReadMemEx(0x00201420, 0x0002 Bytes, ..., Flags = 0x02000000) -- CPU_ReadMem(2 bytes @ 0x00201420) - Data: 0D 48  returns 0x02 (0001ms, 2509ms total)
T16F4 103:386 JLINK_ReadMemEx(0x00201420, 0x003C Bytes, ..., Flags = 0x02000000) -- CPU_ReadMem(60 bytes @ 0x00201420) - Data: 0D 48 80 47 0D 48 01 68 41 F0 10 01 01 60 62 B6 ...  returns 0x3C (0000ms, 2509ms total)
T16F4 103:386 JLINK_ReadMemEx(0x00201420, 0x0002 Bytes, ..., Flags = 0x02000000) -- CPU_ReadMem(2 bytes @ 0x00201420) - Data: 0D 48  returns 0x02 (0001ms, 2510ms total)
T16F4 103:387 JLINK_ReadMemEx(0x00201422, 0x0002 Bytes, ..., Flags = 0x02000000) -- CPU_ReadMem(2 bytes @ 0x00201422) - Data: 80 47  returns 0x02 (0000ms, 2510ms total)
T16F4 105:680 JLINK_ReadReg(R0)  returns 0x00000000 (0004ms, 2514ms total)
T16F4 105:684 JLINK_ReadReg(R1)  returns 0x00000000 (0001ms, 2515ms total)
T16F4 105:685 JLINK_ReadReg(R2)  returns 0x00000000 (0000ms, 2515ms total)
T16F4 105:685 JLINK_ReadReg(R3)  returns 0x00000000 (0000ms, 2515ms total)
T16F4 105:685 JLINK_ReadReg(R4)  returns 0x00000000 (0000ms, 2515ms total)
T16F4 105:685 JLINK_ReadReg(R5)  returns 0x00000000 (0000ms, 2515ms total)
T16F4 105:685 JLINK_ReadReg(R6)  returns 0x00000000 (0000ms, 2515ms total)
T16F4 105:685 JLINK_ReadReg(R7)  returns 0x00000000 (0000ms, 2515ms total)
T16F4 105:685 JLINK_ReadReg(R8)  returns 0x00000000 (0000ms, 2515ms total)
T16F4 105:685 JLINK_ReadReg(R9)  returns 0x00000000 (0000ms, 2515ms total)
T16F4 105:685 JLINK_ReadReg(R10)  returns 0x00000000 (0000ms, 2515ms total)
T16F4 105:685 JLINK_ReadReg(R11)  returns 0x00000000 (0000ms, 2515ms total)
T16F4 105:685 JLINK_ReadReg(R12)  returns 0x00000000 (0000ms, 2515ms total)
T16F4 105:685 JLINK_ReadReg(R13 (SP))  returns 0x20201000 (0000ms, 2515ms total)
T16F4 105:685 JLINK_ReadReg(R14)  returns 0xFFFFFFFF (0000ms, 2515ms total)
T16F4 105:685 JLINK_ReadReg(R15 (PC))  returns 0x00201414 (0000ms, 2515ms total)
T16F4 105:685 JLINK_ReadReg(XPSR)  returns 0x01000000 (0000ms, 2515ms total)
T16F4 105:685 JLINK_ReadReg(MSP)  returns 0x20201000 (0000ms, 2515ms total)
T16F4 105:685 JLINK_ReadReg(PSP)  returns 0x00000000 (0000ms, 2515ms total)
T16F4 105:686 JLINK_ReadReg(CFBP)  returns 0x00000000 (0000ms, 2516ms total)
T16F4 105:686 JLINK_ReadReg(FPSCR)  returns 0x00000000 (0007ms, 2523ms total)
T16F4 105:693 JLINK_ReadReg(FPS0)  returns 0x00000000 (0000ms, 2523ms total)
T16F4 105:693 JLINK_ReadReg(FPS1)  returns 0x00000000 (0000ms, 2523ms total)
T16F4 105:693 JLINK_ReadReg(FPS2)  returns 0x00000000 (0000ms, 2523ms total)
T16F4 105:693 JLINK_ReadReg(FPS3)  returns 0x00000000 (0000ms, 2523ms total)
T16F4 105:693 JLINK_ReadReg(FPS4)  returns 0x00000000 (0000ms, 2523ms total)
T16F4 105:693 JLINK_ReadReg(FPS5)  returns 0x00000000 (0000ms, 2523ms total)
T16F4 105:693 JLINK_ReadReg(FPS6)  returns 0x00000000 (0000ms, 2523ms total)
T16F4 105:693 JLINK_ReadReg(FPS7)  returns 0x00000000 (0000ms, 2523ms total)
T16F4 105:693 JLINK_ReadReg(FPS8)  returns 0x00000000 (0001ms, 2524ms total)
T16F4 105:694 JLINK_ReadReg(FPS9)  returns 0x00000000 (0000ms, 2524ms total)
T16F4 105:694 JLINK_ReadReg(FPS10)  returns 0x00000000 (0000ms, 2524ms total)
T16F4 105:694 JLINK_ReadReg(FPS11)  returns 0x00000000 (0000ms, 2524ms total)
T16F4 105:694 JLINK_ReadReg(FPS12)  returns 0x00000000 (0000ms, 2524ms total)
T16F4 105:694 JLINK_ReadReg(FPS13)  returns 0x00000000 (0000ms, 2524ms total)
T16F4 105:694 JLINK_ReadReg(FPS14)  returns 0x00000000 (0000ms, 2524ms total)
T16F4 105:694 JLINK_ReadReg(FPS15)  returns 0xFFFFFFFF (0000ms, 2524ms total)
T16F4 105:694 JLINK_ReadReg(FPS16)  returns 0x00000000 (0000ms, 2524ms total)
T16F4 105:694 JLINK_ReadReg(FPS17)  returns 0x00000000 (0000ms, 2524ms total)
T16F4 105:694 JLINK_ReadReg(FPS18)  returns 0x00000000 (0000ms, 2524ms total)
T16F4 105:694 JLINK_ReadReg(FPS19)  returns 0x00000000 (0000ms, 2524ms total)
T16F4 105:694 JLINK_ReadReg(FPS20)  returns 0x00000000 (0000ms, 2524ms total)
T16F4 105:694 JLINK_ReadReg(FPS21)  returns 0x00000000 (0000ms, 2524ms total)
T16F4 105:694 JLINK_ReadReg(FPS22)  returns 0x00000000 (0000ms, 2524ms total)
T16F4 105:694 JLINK_ReadReg(FPS23)  returns 0x00000000 (0000ms, 2524ms total)
T16F4 105:694 JLINK_ReadReg(FPS24)  returns 0x00000000 (0000ms, 2524ms total)
T16F4 105:694 JLINK_ReadReg(FPS25)  returns 0x00000000 (0000ms, 2524ms total)
T16F4 105:694 JLINK_ReadReg(FPS26)  returns 0x00000000 (0000ms, 2524ms total)
T16F4 105:695 JLINK_ReadReg(FPS27)  returns 0x00000000 (0000ms, 2525ms total)
T16F4 105:695 JLINK_ReadReg(FPS28)  returns 0x00000000 (0000ms, 2525ms total)
T16F4 105:695 JLINK_ReadReg(FPS29)  returns 0x00000000 (0000ms, 2525ms total)
T16F4 105:695 JLINK_ReadReg(FPS30)  returns 0x00000000 (0000ms, 2525ms total)
T16F4 105:695 JLINK_ReadReg(FPS31)  returns 0xFFFFFFFF (0000ms, 2525ms total)
T16F4 105:697 JLINK_WriteMemEx(0x400FC068, 0x0004 Bytes, ..., Flags = 0x02000000) - Data: FF FF FF FF -- CPU_WriteMem(4 bytes @ 0x400FC068)  returns 0x04 (0001ms, 2526ms total)
T16F4 105:698 JLINK_WriteMemEx(0x400FC06C, 0x0004 Bytes, ..., Flags = 0x02000000) - Data: FF FF FF FF -- CPU_WriteMem(4 bytes @ 0x400FC06C)  returns 0x04 (0000ms, 2526ms total)
T16F4 105:698 JLINK_WriteMemEx(0x400FC070, 0x0004 Bytes, ..., Flags = 0x02000000) - Data: FF FF FF FF -- CPU_WriteMem(4 bytes @ 0x400FC070)  returns 0x04 (0001ms, 2527ms total)
T16F4 105:699 JLINK_WriteMemEx(0x400FC074, 0x0004 Bytes, ..., Flags = 0x02000000) - Data: FF FF FF FF -- CPU_WriteMem(4 bytes @ 0x400FC074)  returns 0x04 (0000ms, 2527ms total)
T16F4 105:699 JLINK_WriteMemEx(0x400FC078, 0x0004 Bytes, ..., Flags = 0x02000000) - Data: FF FF FF FF -- CPU_WriteMem(4 bytes @ 0x400FC078)  returns 0x04 (0000ms, 2527ms total)
T16F4 105:699 JLINK_WriteMemEx(0x400FC07C, 0x0004 Bytes, ..., Flags = 0x02000000) - Data: FF FF FF FF -- CPU_WriteMem(4 bytes @ 0x400FC07C)  returns 0x04 (0001ms, 2528ms total)
T16F4 105:700 JLINK_WriteMemEx(0x400FC080, 0x0004 Bytes, ..., Flags = 0x02000000) - Data: FF FF FF FF -- CPU_WriteMem(4 bytes @ 0x400FC080)  returns 0x04 (0000ms, 2528ms total)
T16F4 105:700 JLINK_WriteMemEx(0x400FC01C, 0x0004 Bytes, ..., Flags = 0x02000000) - Data: 01 00 90 04 -- CPU_WriteMem(4 bytes @ 0x400FC01C)  returns 0x04 (0000ms, 2528ms total)
T16F4 105:700 JLINK_WriteMemEx(0x400D8030, 0x0004 Bytes, ..., Flags = 0x02000000) - Data: 01 20 01 00 -- CPU_WriteMem(4 bytes @ 0x400D8030)  returns 0x04 (0001ms, 2529ms total)
T16F4 105:701 JLINK_ReadMemEx(0x400D8030, 0x0004 Bytes, ..., Flags = 0x02000000) -- CPU_ReadMem(4 bytes @ 0x400D8030) - Data: 01 20 01 00  returns 0x04 (0000ms, 2529ms total)
T16F4 105:701 JLINK_ReadMemEx(0x400D8030, 0x0004 Bytes, ..., Flags = 0x02000000) -- CPU_ReadMem(4 bytes @ 0x400D8030) - Data: 01 20 01 80  returns 0x04 (0000ms, 2529ms total)
T16F4 105:701 JLINK_WriteMemEx(0x400D8030, 0x0004 Bytes, ..., Flags = 0x02000000) - Data: 01 20 00 00 -- CPU_WriteMem(4 bytes @ 0x400D8030)  returns 0x04 (0001ms, 2530ms total)
T16F4 105:702 JLINK_WriteMemEx(0x400D8100, 0x0004 Bytes, ..., Flags = 0x02000000) - Data: 00 00 1D 00 -- CPU_WriteMem(4 bytes @ 0x400D8100)  returns 0x04 (0000ms, 2530ms total)
T16F4 105:702 JLINK_WriteMemEx(0x400FC014, 0x0004 Bytes, ..., Flags = 0x02000000) - Data: 40 0D 01 00 -- CPU_WriteMem(4 bytes @ 0x400FC014)  returns 0x04 (0000ms, 2530ms total)
T16F4 105:702 JLINK_WriteMemEx(0x401F8014, 0x0004 Bytes, ..., Flags = 0x02000000) - Data: 00 00 00 00 -- CPU_WriteMem(4 bytes @ 0x401F8014)  returns 0x04 (0000ms, 2530ms total)
T16F4 105:703 JLINK_WriteMemEx(0x401F8018, 0x0004 Bytes, ..., Flags = 0x02000000) - Data: 00 00 00 00 -- CPU_WriteMem(4 bytes @ 0x401F8018)  returns 0x04 (0000ms, 2531ms total)
T16F4 105:703 JLINK_WriteMemEx(0x401F801C, 0x0004 Bytes, ..., Flags = 0x02000000) - Data: 00 00 00 00 -- CPU_WriteMem(4 bytes @ 0x401F801C)  returns 0x04 (0001ms, 2532ms total)
T16F4 105:704 JLINK_WriteMemEx(0x401F8020, 0x0004 Bytes, ..., Flags = 0x02000000) - Data: 00 00 00 00 -- CPU_WriteMem(4 bytes @ 0x401F8020)  returns 0x04 (0000ms, 2532ms total)
T16F4 105:704 JLINK_WriteMemEx(0x401F8024, 0x0004 Bytes, ..., Flags = 0x02000000) - Data: 00 00 00 00 -- CPU_WriteMem(4 bytes @ 0x401F8024)  returns 0x04 (0000ms, 2532ms total)
T16F4 105:704 JLINK_WriteMemEx(0x401F8028, 0x0004 Bytes, ..., Flags = 0x02000000) - Data: 00 00 00 00 -- CPU_WriteMem(4 bytes @ 0x401F8028)  returns 0x04 (0000ms, 2532ms total)
T16F4 105:705 JLINK_WriteMemEx(0x401F802C, 0x0004 Bytes, ..., Flags = 0x02000000) - Data: 00 00 00 00 -- CPU_WriteMem(4 bytes @ 0x401F802C)  returns 0x04 (0000ms, 2533ms total)
T16F4 105:705 JLINK_WriteMemEx(0x401F8030, 0x0004 Bytes, ..., Flags = 0x02000000) - Data: 00 00 00 00 -- CPU_WriteMem(4 bytes @ 0x401F8030)  returns 0x04 (0000ms, 2533ms total)
T16F4 105:705 JLINK_WriteMemEx(0x401F8034, 0x0004 Bytes, ..., Flags = 0x02000000) - Data: 00 00 00 00 -- CPU_WriteMem(4 bytes @ 0x401F8034)  returns 0x04 (0000ms, 2533ms total)
T16F4 105:705 JLINK_WriteMemEx(0x401F8038, 0x0004 Bytes, ..., Flags = 0x02000000) - Data: 00 00 00 00 -- CPU_WriteMem(4 bytes @ 0x401F8038)  returns 0x04 (0001ms, 2534ms total)
T16F4 105:706 JLINK_WriteMemEx(0x401F803C, 0x0004 Bytes, ..., Flags = 0x02000000) - Data: 00 00 00 00 -- CPU_WriteMem(4 bytes @ 0x401F803C)  returns 0x04 (0000ms, 2534ms total)
T16F4 105:706 JLINK_WriteMemEx(0x401F8040, 0x0004 Bytes, ..., Flags = 0x02000000) - Data: 00 00 00 00 -- CPU_WriteMem(4 bytes @ 0x401F8040)  returns 0x04 (0000ms, 2534ms total)
T16F4 105:706 JLINK_WriteMemEx(0x401F8044, 0x0004 Bytes, ..., Flags = 0x02000000) - Data: 00 00 00 00 -- CPU_WriteMem(4 bytes @ 0x401F8044)  returns 0x04 (0001ms, 2535ms total)
T16F4 105:707 JLINK_WriteMemEx(0x401F8048, 0x0004 Bytes, ..., Flags = 0x02000000) - Data: 00 00 00 00 -- CPU_WriteMem(4 bytes @ 0x401F8048)  returns 0x04 (0000ms, 2535ms total)
T16F4 105:707 JLINK_WriteMemEx(0x401F804C, 0x0004 Bytes, ..., Flags = 0x02000000) - Data: 00 00 00 00 -- CPU_WriteMem(4 bytes @ 0x401F804C)  returns 0x04 (0001ms, 2536ms total)
T16F4 105:708 JLINK_WriteMemEx(0x401F8050, 0x0004 Bytes, ..., Flags = 0x02000000) - Data: 00 00 00 00 -- CPU_WriteMem(4 bytes @ 0x401F8050)  returns 0x04 (0000ms, 2536ms total)
T16F4 105:708 JLINK_WriteMemEx(0x401F8054, 0x0004 Bytes, ..., Flags = 0x02000000) - Data: 00 00 00 00 -- CPU_WriteMem(4 bytes @ 0x401F8054)  returns 0x04 (0000ms, 2536ms total)
T16F4 105:708 JLINK_WriteMemEx(0x401F8058, 0x0004 Bytes, ..., Flags = 0x02000000) - Data: 00 00 00 00 -- CPU_WriteMem(4 bytes @ 0x401F8058)  returns 0x04 (0001ms, 2537ms total)
T16F4 105:709 JLINK_WriteMemEx(0x401F805C, 0x0004 Bytes, ..., Flags = 0x02000000) - Data: 00 00 00 00 -- CPU_WriteMem(4 bytes @ 0x401F805C)  returns 0x04 (0000ms, 2537ms total)
T16F4 105:709 JLINK_WriteMemEx(0x401F8060, 0x0004 Bytes, ..., Flags = 0x02000000) - Data: 00 00 00 00 -- CPU_WriteMem(4 bytes @ 0x401F8060)  returns 0x04 (0000ms, 2537ms total)
T16F4 105:709 JLINK_WriteMemEx(0x401F8064, 0x0004 Bytes, ..., Flags = 0x02000000) - Data: 00 00 00 00 -- CPU_WriteMem(4 bytes @ 0x401F8064)  returns 0x04 (0001ms, 2538ms total)
T16F4 105:710 JLINK_WriteMemEx(0x401F8068, 0x0004 Bytes, ..., Flags = 0x02000000) - Data: 00 00 00 00 -- CPU_WriteMem(4 bytes @ 0x401F8068)  returns 0x04 (0000ms, 2538ms total)
T16F4 105:710 JLINK_WriteMemEx(0x401F806C, 0x0004 Bytes, ..., Flags = 0x02000000) - Data: 00 00 00 00 -- CPU_WriteMem(4 bytes @ 0x401F806C)  returns 0x04 (0000ms, 2538ms total)
T16F4 105:710 JLINK_WriteMemEx(0x401F8070, 0x0004 Bytes, ..., Flags = 0x02000000) - Data: 00 00 00 00 -- CPU_WriteMem(4 bytes @ 0x401F8070)  returns 0x04 (0001ms, 2539ms total)
T16F4 105:711 JLINK_WriteMemEx(0x401F8074, 0x0004 Bytes, ..., Flags = 0x02000000) - Data: 00 00 00 00 -- CPU_WriteMem(4 bytes @ 0x401F8074)  returns 0x04 (0000ms, 2539ms total)
T16F4 105:711 JLINK_WriteMemEx(0x401F8078, 0x0004 Bytes, ..., Flags = 0x02000000) - Data: 00 00 00 00 -- CPU_WriteMem(4 bytes @ 0x401F8078)  returns 0x04 (0000ms, 2539ms total)
T16F4 105:711 JLINK_WriteMemEx(0x401F807C, 0x0004 Bytes, ..., Flags = 0x02000000) - Data: 00 00 00 00 -- CPU_WriteMem(4 bytes @ 0x401F807C)  returns 0x04 (0001ms, 2540ms total)
T16F4 105:712 JLINK_WriteMemEx(0x401F8080, 0x0004 Bytes, ..., Flags = 0x02000000) - Data: 00 00 00 00 -- CPU_WriteMem(4 bytes @ 0x401F8080)  returns 0x04 (0000ms, 2540ms total)
T16F4 105:712 JLINK_WriteMemEx(0x401F8084, 0x0004 Bytes, ..., Flags = 0x02000000) - Data: 00 00 00 00 -- CPU_WriteMem(4 bytes @ 0x401F8084)  returns 0x04 (0000ms, 2540ms total)
T16F4 105:713 JLINK_WriteMemEx(0x401F8088, 0x0004 Bytes, ..., Flags = 0x02000000) - Data: 00 00 00 00 -- CPU_WriteMem(4 bytes @ 0x401F8088)  returns 0x04 (0000ms, 2541ms total)
T16F4 105:713 JLINK_WriteMemEx(0x401F808C, 0x0004 Bytes, ..., Flags = 0x02000000) - Data: 00 00 00 00 -- CPU_WriteMem(4 bytes @ 0x401F808C)  returns 0x04 (0000ms, 2541ms total)
T16F4 105:713 JLINK_WriteMemEx(0x401F8090, 0x0004 Bytes, ..., Flags = 0x02000000) - Data: 00 00 00 00 -- CPU_WriteMem(4 bytes @ 0x401F8090)  returns 0x04 (0001ms, 2542ms total)
T16F4 105:714 JLINK_WriteMemEx(0x401F8094, 0x0004 Bytes, ..., Flags = 0x02000000) - Data: 00 00 00 00 -- CPU_WriteMem(4 bytes @ 0x401F8094)  returns 0x04 (0000ms, 2542ms total)
T16F4 105:714 JLINK_WriteMemEx(0x401F8098, 0x0004 Bytes, ..., Flags = 0x02000000) - Data: 00 00 00 00 -- CPU_WriteMem(4 bytes @ 0x401F8098)  returns 0x04 (0000ms, 2542ms total)
T16F4 105:714 JLINK_WriteMemEx(0x401F809C, 0x0004 Bytes, ..., Flags = 0x02000000) - Data: 00 00 00 00 -- CPU_WriteMem(4 bytes @ 0x401F809C)  returns 0x04 (0001ms, 2543ms total)
T16F4 105:715 JLINK_WriteMemEx(0x401F80A0, 0x0004 Bytes, ..., Flags = 0x02000000) - Data: 00 00 00 00 -- CPU_WriteMem(4 bytes @ 0x401F80A0)  returns 0x04 (0000ms, 2543ms total)
T16F4 105:715 JLINK_WriteMemEx(0x401F80A4, 0x0004 Bytes, ..., Flags = 0x02000000) - Data: 00 00 00 00 -- CPU_WriteMem(4 bytes @ 0x401F80A4)  returns 0x04 (0000ms, 2543ms total)
T16F4 105:715 JLINK_WriteMemEx(0x401F80A8, 0x0004 Bytes, ..., Flags = 0x02000000) - Data: 00 00 00 00 -- CPU_WriteMem(4 bytes @ 0x401F80A8)  returns 0x04 (0000ms, 2543ms total)
T16F4 105:716 JLINK_WriteMemEx(0x401F80AC, 0x0004 Bytes, ..., Flags = 0x02000000) - Data: 00 00 00 00 -- CPU_WriteMem(4 bytes @ 0x401F80AC)  returns 0x04 (0000ms, 2543ms total)
T16F4 105:716 JLINK_WriteMemEx(0x401F80B0, 0x0004 Bytes, ..., Flags = 0x02000000) - Data: 10 00 00 00 -- CPU_WriteMem(4 bytes @ 0x401F80B0)  returns 0x04 (0000ms, 2543ms total)
T16F4 105:716 JLINK_WriteMemEx(0x401F80B4, 0x0004 Bytes, ..., Flags = 0x02000000) - Data: 00 00 00 00 -- CPU_WriteMem(4 bytes @ 0x401F80B4)  returns 0x04 (0001ms, 2544ms total)
T16F4 105:717 JLINK_WriteMemEx(0x401F80B8, 0x0004 Bytes, ..., Flags = 0x02000000) - Data: 00 00 00 00 -- CPU_WriteMem(4 bytes @ 0x401F80B8)  returns 0x04 (0000ms, 2544ms total)
T16F4 105:717 JLINK_WriteMemEx(0x401F8204, 0x0004 Bytes, ..., Flags = 0x02000000) - Data: F9 10 01 00 -- CPU_WriteMem(4 bytes @ 0x401F8204)  returns 0x04 (0000ms, 2544ms total)
T16F4 105:717 JLINK_WriteMemEx(0x401F8208, 0x0004 Bytes, ..., Flags = 0x02000000) - Data: F9 10 01 00 -- CPU_WriteMem(4 bytes @ 0x401F8208)  returns 0x04 (0001ms, 2545ms total)
T16F4 105:718 JLINK_WriteMemEx(0x401F820C, 0x0004 Bytes, ..., Flags = 0x02000000) - Data: F9 10 01 00 -- CPU_WriteMem(4 bytes @ 0x401F820C)  returns 0x04 (0000ms, 2545ms total)
T16F4 105:718 JLINK_WriteMemEx(0x401F8210, 0x0004 Bytes, ..., Flags = 0x02000000) - Data: F9 10 01 00 -- CPU_WriteMem(4 bytes @ 0x401F8210)  returns 0x04 (0000ms, 2545ms total)
T16F4 105:718 JLINK_WriteMemEx(0x401F8214, 0x0004 Bytes, ..., Flags = 0x02000000) - Data: F9 10 01 00 -- CPU_WriteMem(4 bytes @ 0x401F8214)  returns 0x04 (0000ms, 2545ms total)
T16F4 105:719 JLINK_WriteMemEx(0x401F8218, 0x0004 Bytes, ..., Flags = 0x02000000) - Data: F9 10 01 00 -- CPU_WriteMem(4 bytes @ 0x401F8218)  returns 0x04 (0000ms, 2546ms total)
T16F4 105:719 JLINK_WriteMemEx(0x401F821C, 0x0004 Bytes, ..., Flags = 0x02000000) - Data: F9 10 01 00 -- CPU_WriteMem(4 bytes @ 0x401F821C)  returns 0x04 (0000ms, 2546ms total)
T16F4 105:719 JLINK_WriteMemEx(0x401F8220, 0x0004 Bytes, ..., Flags = 0x02000000) - Data: F9 10 01 00 -- CPU_WriteMem(4 bytes @ 0x401F8220)  returns 0x04 (0001ms, 2547ms total)
T16F4 105:720 JLINK_WriteMemEx(0x401F8224, 0x0004 Bytes, ..., Flags = 0x02000000) - Data: F9 10 01 00 -- CPU_WriteMem(4 bytes @ 0x401F8224)  returns 0x04 (0000ms, 2547ms total)
T16F4 105:720 JLINK_WriteMemEx(0x401F8228, 0x0004 Bytes, ..., Flags = 0x02000000) - Data: F9 10 01 00 -- CPU_WriteMem(4 bytes @ 0x401F8228)  returns 0x04 (0001ms, 2548ms total)
T16F4 105:721 JLINK_WriteMemEx(0x401F822C, 0x0004 Bytes, ..., Flags = 0x02000000) - Data: F9 10 01 00 -- CPU_WriteMem(4 bytes @ 0x401F822C)  returns 0x04 (0000ms, 2548ms total)
T16F4 105:721 JLINK_WriteMemEx(0x401F8230, 0x0004 Bytes, ..., Flags = 0x02000000) - Data: F9 10 01 00 -- CPU_WriteMem(4 bytes @ 0x401F8230)  returns 0x04 (0000ms, 2548ms total)
T16F4 105:722 JLINK_WriteMemEx(0x401F8234, 0x0004 Bytes, ..., Flags = 0x02000000) - Data: F9 10 01 00 -- CPU_WriteMem(4 bytes @ 0x401F8234)  returns 0x04 (0000ms, 2549ms total)
T16F4 105:722 JLINK_WriteMemEx(0x401F8238, 0x0004 Bytes, ..., Flags = 0x02000000) - Data: F9 10 01 00 -- CPU_WriteMem(4 bytes @ 0x401F8238)  returns 0x04 (0000ms, 2549ms total)
T16F4 105:722 JLINK_WriteMemEx(0x401F823C, 0x0004 Bytes, ..., Flags = 0x02000000) - Data: F9 10 01 00 -- CPU_WriteMem(4 bytes @ 0x401F823C)  returns 0x04 (0000ms, 2549ms total)
T16F4 105:722 JLINK_WriteMemEx(0x401F8240, 0x0004 Bytes, ..., Flags = 0x02000000) - Data: F9 10 01 00 -- CPU_WriteMem(4 bytes @ 0x401F8240)  returns 0x04 (0001ms, 2550ms total)
T16F4 105:723 JLINK_WriteMemEx(0x401F8244, 0x0004 Bytes, ..., Flags = 0x02000000) - Data: F9 10 01 00 -- CPU_WriteMem(4 bytes @ 0x401F8244)  returns 0x04 (0000ms, 2550ms total)
T16F4 105:723 JLINK_WriteMemEx(0x401F8248, 0x0004 Bytes, ..., Flags = 0x02000000) - Data: F9 10 01 00 -- CPU_WriteMem(4 bytes @ 0x401F8248)  returns 0x04 (0001ms, 2551ms total)
T16F4 105:724 JLINK_WriteMemEx(0x401F824C, 0x0004 Bytes, ..., Flags = 0x02000000) - Data: F9 10 01 00 -- CPU_WriteMem(4 bytes @ 0x401F824C)  returns 0x04 (0000ms, 2551ms total)
T16F4 105:724 JLINK_WriteMemEx(0x401F8250, 0x0004 Bytes, ..., Flags = 0x02000000) - Data: F9 10 01 00 -- CPU_WriteMem(4 bytes @ 0x401F8250)  returns 0x04 (0000ms, 2551ms total)
T16F4 105:724 JLINK_WriteMemEx(0x401F8254, 0x0004 Bytes, ..., Flags = 0x02000000) - Data: F9 10 01 00 -- CPU_WriteMem(4 bytes @ 0x401F8254)  returns 0x04 (0001ms, 2552ms total)
T16F4 105:725 JLINK_WriteMemEx(0x401F8258, 0x0004 Bytes, ..., Flags = 0x02000000) - Data: F9 10 01 00 -- CPU_WriteMem(4 bytes @ 0x401F8258)  returns 0x04 (0000ms, 2552ms total)
T16F4 105:725 JLINK_WriteMemEx(0x401F825C, 0x0004 Bytes, ..., Flags = 0x02000000) - Data: F9 10 01 00 -- CPU_WriteMem(4 bytes @ 0x401F825C)  returns 0x04 (0000ms, 2552ms total)
T16F4 105:725 JLINK_WriteMemEx(0x401F8260, 0x0004 Bytes, ..., Flags = 0x02000000) - Data: F9 10 01 00 -- CPU_WriteMem(4 bytes @ 0x401F8260)  returns 0x04 (0001ms, 2553ms total)
T16F4 105:726 JLINK_WriteMemEx(0x401F8264, 0x0004 Bytes, ..., Flags = 0x02000000) - Data: F9 10 01 00 -- CPU_WriteMem(4 bytes @ 0x401F8264)  returns 0x04 (0000ms, 2553ms total)
T16F4 105:726 JLINK_WriteMemEx(0x401F8268, 0x0004 Bytes, ..., Flags = 0x02000000) - Data: F9 10 01 00 -- CPU_WriteMem(4 bytes @ 0x401F8268)  returns 0x04 (0000ms, 2553ms total)
T16F4 105:726 JLINK_WriteMemEx(0x401F826C, 0x0004 Bytes, ..., Flags = 0x02000000) - Data: F9 10 01 00 -- CPU_WriteMem(4 bytes @ 0x401F826C)  returns 0x04 (0001ms, 2554ms total)
T16F4 105:727 JLINK_WriteMemEx(0x401F8270, 0x0004 Bytes, ..., Flags = 0x02000000) - Data: F9 10 01 00 -- CPU_WriteMem(4 bytes @ 0x401F8270)  returns 0x04 (0000ms, 2554ms total)
T16F4 105:727 JLINK_WriteMemEx(0x401F8274, 0x0004 Bytes, ..., Flags = 0x02000000) - Data: F9 10 01 00 -- CPU_WriteMem(4 bytes @ 0x401F8274)  returns 0x04 (0000ms, 2554ms total)
T16F4 105:728 JLINK_WriteMemEx(0x401F8278, 0x0004 Bytes, ..., Flags = 0x02000000) - Data: F9 10 01 00 -- CPU_WriteMem(4 bytes @ 0x401F8278)  returns 0x04 (0000ms, 2554ms total)
T16F4 105:728 JLINK_WriteMemEx(0x401F827C, 0x0004 Bytes, ..., Flags = 0x02000000) - Data: F9 10 01 00 -- CPU_WriteMem(4 bytes @ 0x401F827C)  returns 0x04 (0000ms, 2554ms total)
T16F4 105:728 JLINK_WriteMemEx(0x401F8280, 0x0004 Bytes, ..., Flags = 0x02000000) - Data: F9 10 01 00 -- CPU_WriteMem(4 bytes @ 0x401F8280)  returns 0x04 (0001ms, 2555ms total)
T16F4 105:729 JLINK_WriteMemEx(0x401F8284, 0x0004 Bytes, ..., Flags = 0x02000000) - Data: F9 10 01 00 -- CPU_WriteMem(4 bytes @ 0x401F8284)  returns 0x04 (0000ms, 2555ms total)
T16F4 105:729 JLINK_WriteMemEx(0x401F8288, 0x0004 Bytes, ..., Flags = 0x02000000) - Data: F9 10 01 00 -- CPU_WriteMem(4 bytes @ 0x401F8288)  returns 0x04 (0000ms, 2555ms total)
T16F4 105:729 JLINK_WriteMemEx(0x401F828C, 0x0004 Bytes, ..., Flags = 0x02000000) - Data: F9 10 01 00 -- CPU_WriteMem(4 bytes @ 0x401F828C)  returns 0x04 (0001ms, 2556ms total)
T16F4 105:730 JLINK_WriteMemEx(0x401F8290, 0x0004 Bytes, ..., Flags = 0x02000000) - Data: F9 10 01 00 -- CPU_WriteMem(4 bytes @ 0x401F8290)  returns 0x04 (0000ms, 2556ms total)
T16F4 105:730 JLINK_WriteMemEx(0x401F8294, 0x0004 Bytes, ..., Flags = 0x02000000) - Data: F9 10 01 00 -- CPU_WriteMem(4 bytes @ 0x401F8294)  returns 0x04 (0000ms, 2556ms total)
T16F4 105:730 JLINK_WriteMemEx(0x401F8298, 0x0004 Bytes, ..., Flags = 0x02000000) - Data: F9 10 01 00 -- CPU_WriteMem(4 bytes @ 0x401F8298)  returns 0x04 (0001ms, 2557ms total)
T16F4 105:731 JLINK_WriteMemEx(0x401F829C, 0x0004 Bytes, ..., Flags = 0x02000000) - Data: F9 10 01 00 -- CPU_WriteMem(4 bytes @ 0x401F829C)  returns 0x04 (0000ms, 2557ms total)
T16F4 105:731 JLINK_WriteMemEx(0x401F82A0, 0x0004 Bytes, ..., Flags = 0x02000000) - Data: F9 10 01 00 -- CPU_WriteMem(4 bytes @ 0x401F82A0)  returns 0x04 (0000ms, 2557ms total)
T16F4 105:731 JLINK_WriteMemEx(0x401F82A4, 0x0004 Bytes, ..., Flags = 0x02000000) - Data: F9 10 01 00 -- CPU_WriteMem(4 bytes @ 0x401F82A4)  returns 0x04 (0001ms, 2558ms total)
T16F4 105:732 JLINK_WriteMemEx(0x401F82A8, 0x0004 Bytes, ..., Flags = 0x02000000) - Data: F9 10 01 00 -- CPU_WriteMem(4 bytes @ 0x401F82A8)  returns 0x04 (0000ms, 2558ms total)
T16F4 105:732 JLINK_WriteMemEx(0x402F0000, 0x0004 Bytes, ..., Flags = 0x02000000) - Data: 04 00 00 10 -- CPU_WriteMem(4 bytes @ 0x402F0000)  returns 0x04 (0000ms, 2558ms total)
T16F4 105:732 JLINK_WriteMemEx(0x402F0008, 0x0004 Bytes, ..., Flags = 0x02000000) - Data: 24 05 03 00 -- CPU_WriteMem(4 bytes @ 0x402F0008)  returns 0x04 (0001ms, 2559ms total)
T16F4 105:733 JLINK_WriteMemEx(0x402F000C, 0x0004 Bytes, ..., Flags = 0x02000000) - Data: 24 05 03 06 -- CPU_WriteMem(4 bytes @ 0x402F000C)  returns 0x04 (0000ms, 2559ms total)
T16F4 105:733 JLINK_WriteMemEx(0x402F0010, 0x0004 Bytes, ..., Flags = 0x02000000) - Data: 1B 00 00 80 -- CPU_WriteMem(4 bytes @ 0x402F0010)  returns 0x04 (0000ms, 2559ms total)
T16F4 105:733 JLINK_WriteMemEx(0x402F0040, 0x0004 Bytes, ..., Flags = 0x02000000) - Data: 31 0F 00 00 -- CPU_WriteMem(4 bytes @ 0x402F0040)  returns 0x04 (0001ms, 2560ms total)
T16F4 105:734 JLINK_WriteMemEx(0x402F0044, 0x0004 Bytes, ..., Flags = 0x02000000) - Data: 22 29 65 00 -- CPU_WriteMem(4 bytes @ 0x402F0044)  returns 0x04 (0000ms, 2560ms total)
T16F4 105:734 JLINK_WriteMemEx(0x402F0048, 0x0004 Bytes, ..., Flags = 0x02000000) - Data: 20 09 01 00 -- CPU_WriteMem(4 bytes @ 0x402F0048)  returns 0x04 (0000ms, 2560ms total)
T16F4 105:734 JLINK_WriteMemEx(0x402F004C, 0x0004 Bytes, ..., Flags = 0x02000000) - Data: 08 0A 21 50 -- CPU_WriteMem(4 bytes @ 0x402F004C)  returns 0x04 (0025ms, 2585ms total)
T16F4 105:759 JLINK_WriteMemEx(0x402F0090, 0x0004 Bytes, ..., Flags = 0x02000000) - Data: 00 00 00 80 -- CPU_WriteMem(4 bytes @ 0x402F0090)  returns 0x04 (0001ms, 2586ms total)
T16F4 105:760 JLINK_WriteMemEx(0x402F0094, 0x0004 Bytes, ..., Flags = 0x02000000) - Data: 02 00 00 00 -- CPU_WriteMem(4 bytes @ 0x402F0094)  returns 0x04 (0000ms, 2586ms total)
T16F4 105:760 JLINK_WriteMemEx(0x402F0098, 0x0004 Bytes, ..., Flags = 0x02000000) - Data: 00 00 00 00 -- CPU_WriteMem(4 bytes @ 0x402F0098)  returns 0x04 (0001ms, 2587ms total)
T16F4 105:761 JLINK_WriteMemEx(0x402F009C, 0x0004 Bytes, ..., Flags = 0x02000000) - Data: 0F 00 5A A5 -- CPU_WriteMem(4 bytes @ 0x402F009C)  returns 0x04 (0000ms, 2587ms total)
T16F4 105:761 JLINK_ReadMemEx(0x402F003C, 0x0004 Bytes, ..., Flags = 0x02000000) -- CPU_ReadMem(4 bytes @ 0x402F003C) - Data: 01 00 00 00  returns 0x04 (0000ms, 2587ms total)
T16F4 105:761 JLINK_WriteMemEx(0x402F003C, 0x0004 Bytes, ..., Flags = 0x02000000) - Data: 03 00 00 00 -- CPU_WriteMem(4 bytes @ 0x402F003C)  returns 0x04 (0001ms, 2588ms total)
T16F4 105:762 JLINK_WriteMemEx(0x402F009C, 0x0004 Bytes, ..., Flags = 0x02000000) - Data: 0C 00 5A A5 -- CPU_WriteMem(4 bytes @ 0x402F009C)  returns 0x04 (0000ms, 2588ms total)
T16F4 105:762 JLINK_ReadMemEx(0x402F003C, 0x0004 Bytes, ..., Flags = 0x02000000) -- CPU_ReadMem(4 bytes @ 0x402F003C) - Data: 01 00 00 00  returns 0x04 (0001ms, 2589ms total)
T16F4 105:763 JLINK_WriteMemEx(0x402F003C, 0x0004 Bytes, ..., Flags = 0x02000000) - Data: 03 00 00 00 -- CPU_WriteMem(4 bytes @ 0x402F003C)  returns 0x04 (0000ms, 2589ms total)
T16F4 105:763 JLINK_WriteMemEx(0x402F009C, 0x0004 Bytes, ..., Flags = 0x02000000) - Data: 0C 00 5A A5 -- CPU_WriteMem(4 bytes @ 0x402F009C)  returns 0x04 (0000ms, 2589ms total)
T16F4 105:763 JLINK_ReadMemEx(0x402F003C, 0x0004 Bytes, ..., Flags = 0x02000000) -- CPU_ReadMem(4 bytes @ 0x402F003C) - Data: 01 00 00 00  returns 0x04 (0001ms, 2590ms total)
T16F4 105:764 JLINK_WriteMemEx(0x402F003C, 0x0004 Bytes, ..., Flags = 0x02000000) - Data: 03 00 00 00 -- CPU_WriteMem(4 bytes @ 0x402F003C)  returns 0x04 (0000ms, 2590ms total)
T16F4 105:891 JLINK_WriteMemEx(0x402F00A0, 0x0004 Bytes, ..., Flags = 0x02000000) - Data: 33 00 00 00 -- CPU_WriteMem(4 bytes @ 0x402F00A0)  returns 0x04 (0001ms, 2591ms total)
T16F4 105:892 JLINK_WriteMemEx(0x402F009C, 0x0004 Bytes, ..., Flags = 0x02000000) - Data: 0A 00 5A A5 -- CPU_WriteMem(4 bytes @ 0x402F009C)  returns 0x04 (0000ms, 2591ms total)
T16F4 105:892 JLINK_ReadMemEx(0x402F003C, 0x0004 Bytes, ..., Flags = 0x02000000) -- CPU_ReadMem(4 bytes @ 0x402F003C) - Data: 01 00 00 00  returns 0x04 (0000ms, 2591ms total)
T16F4 105:892 JLINK_WriteMemEx(0x402F003C, 0x0004 Bytes, ..., Flags = 0x02000000) - Data: 03 00 00 00 -- CPU_WriteMem(4 bytes @ 0x402F003C)  returns 0x04 (0001ms, 2592ms total)
T16F4 105:893 JLINK_WriteMemEx(0x402F004C, 0x0004 Bytes, ..., Flags = 0x02000000) - Data: 01 0A 08 08 -- CPU_WriteMem(4 bytes @ 0x402F004C)  returns 0x04 (0000ms, 2592ms total)
T16F4 106:445 JLINK_ReadMemEx(0x401F4490, 0x0004 Bytes, ..., Flags = 0x02000000) -- CPU_ReadMem(4 bytes @ 0x401F4490) - Data: 00 94 00 00  returns 0x04 (0000ms, 2592ms total)
T16F4 106:446 JLINK_ReadMemEx(0x40080004, 0x0004 Bytes, ..., Flags = 0x02000000) -- CPU_ReadMem(4 bytes @ 0x40080004) - Data: 9C A2 1B 11  returns 0x04 (0000ms, 2592ms total)
T16F4 106:446 JLINK_WriteMemEx(0x40080004, 0x0004 Bytes, ..., Flags = 0x02000000) - Data: 9C A2 1B 12 -- CPU_WriteMem(4 bytes @ 0x40080004)  returns 0x04 (0000ms, 2592ms total)
T16F4 106:446 JLINK_ReadMemEx(0x401F4480, 0x0004 Bytes, ..., Flags = 0x02000000) -- CPU_ReadMem(4 bytes @ 0x401F4480) - Data: 00 00 00 00  returns 0x04 (0001ms, 2593ms total)
T16F4 106:454 JLINK_ReadMemEx(0x60002000, 0x0004 Bytes, ..., Flags = 0x02000000) -- CPU_ReadMem(4 bytes @ 0x60002000) - Data: 02 02 02 02  returns 0x04 (0000ms, 2593ms total)
T16F4 106:455 JLINK_WriteReg(R13 (SP), 0x02020202)  returns 0x00 (0000ms, 2593ms total)
T16F4 106:455 JLINK_ReadReg(R0)  returns 0x00000000 (0000ms, 2593ms total)
T16F4 106:455 JLINK_ReadReg(R1)  returns 0x00000000 (0000ms, 2593ms total)
T16F4 106:455 JLINK_ReadReg(R2)  returns 0x00000000 (0000ms, 2593ms total)
T16F4 106:455 JLINK_ReadReg(R3)  returns 0x00000000 (0000ms, 2593ms total)
T16F4 106:455 JLINK_ReadReg(R4)  returns 0x00000000 (0000ms, 2593ms total)
T16F4 106:455 JLINK_ReadReg(R5)  returns 0x00000000 (0000ms, 2593ms total)
T16F4 106:455 JLINK_ReadReg(R6)  returns 0x00000000 (0000ms, 2593ms total)
T16F4 106:455 JLINK_ReadReg(R7)  returns 0x00000000 (0000ms, 2593ms total)
T16F4 106:455 JLINK_ReadReg(R8)  returns 0x00000000 (0000ms, 2593ms total)
T16F4 106:455 JLINK_ReadReg(R9)  returns 0x00000000 (0000ms, 2593ms total)
T16F4 106:455 JLINK_ReadReg(R10)  returns 0x00000000 (0000ms, 2593ms total)
T16F4 106:455 JLINK_ReadReg(R11)  returns 0x00000000 (0000ms, 2593ms total)
T16F4 106:455 JLINK_ReadReg(R12)  returns 0x00000000 (0001ms, 2594ms total)
T16F4 106:456 JLINK_ReadReg(R13 (SP))  returns 0x02020202 (0000ms, 2594ms total)
T16F4 106:456 JLINK_ReadReg(R14)  returns 0xFFFFFFFF (0000ms, 2594ms total)
T16F4 106:456 JLINK_ReadReg(R15 (PC))  returns 0x00201414 (0000ms, 2594ms total)
T16F4 106:456 JLINK_ReadReg(XPSR)  returns 0x01000000 (0000ms, 2594ms total)
T16F4 106:456 JLINK_ReadReg(MSP)  returns 0x02020202 (0000ms, 2594ms total)
T16F4 106:456 JLINK_ReadReg(PSP)  returns 0x00000000 (0000ms, 2594ms total)
T16F4 106:456 JLINK_ReadReg(CFBP)  returns 0x00000000 (0000ms, 2594ms total)
T16F4 106:456 JLINK_ReadReg(FPSCR)  returns 0x00000000 (0000ms, 2594ms total)
T16F4 106:456 JLINK_ReadReg(FPS0)  returns 0x00000000 (0000ms, 2594ms total)
T16F4 106:456 JLINK_ReadReg(FPS1)  returns 0x00000000 (0000ms, 2594ms total)
T16F4 106:456 JLINK_ReadReg(FPS2)  returns 0x00000000 (0000ms, 2594ms total)
T16F4 106:456 JLINK_ReadReg(FPS3)  returns 0x00000000 (0000ms, 2594ms total)
T16F4 106:456 JLINK_ReadReg(FPS4)  returns 0x00000000 (0000ms, 2594ms total)
T16F4 106:456 JLINK_ReadReg(FPS5)  returns 0x00000000 (0000ms, 2594ms total)
T16F4 106:456 JLINK_ReadReg(FPS6)  returns 0x00000000 (0000ms, 2594ms total)
T16F4 106:456 JLINK_ReadReg(FPS7)  returns 0x00000000 (0000ms, 2594ms total)
T16F4 106:456 JLINK_ReadReg(FPS8)  returns 0x00000000 (0000ms, 2594ms total)
T16F4 106:456 JLINK_ReadReg(FPS9)  returns 0x00000000 (0000ms, 2594ms total)
T16F4 106:456 JLINK_ReadReg(FPS10)  returns 0x00000000 (0001ms, 2595ms total)
T16F4 106:457 JLINK_ReadReg(FPS11)  returns 0x00000000 (0000ms, 2595ms total)
T16F4 106:457 JLINK_ReadReg(FPS12)  returns 0x00000000 (0000ms, 2595ms total)
T16F4 106:457 JLINK_ReadReg(FPS13)  returns 0x00000000 (0000ms, 2595ms total)
T16F4 106:457 JLINK_ReadReg(FPS14)  returns 0x00000000 (0000ms, 2595ms total)
T16F4 106:457 JLINK_ReadReg(FPS15)  returns 0xFFFFFFFF (0000ms, 2595ms total)
T16F4 106:457 JLINK_ReadReg(FPS16)  returns 0x00000000 (0000ms, 2595ms total)
T16F4 106:457 JLINK_ReadReg(FPS17)  returns 0x00000000 (0000ms, 2595ms total)
T16F4 106:457 JLINK_ReadReg(FPS18)  returns 0x00000000 (0000ms, 2595ms total)
T16F4 106:457 JLINK_ReadReg(FPS19)  returns 0x00000000 (0000ms, 2595ms total)
T16F4 106:457 JLINK_ReadReg(FPS20)  returns 0x00000000 (0000ms, 2595ms total)
T16F4 106:457 JLINK_ReadReg(FPS21)  returns 0x00000000 (0000ms, 2595ms total)
T16F4 106:457 JLINK_ReadReg(FPS22)  returns 0x00000000 (0000ms, 2595ms total)
T16F4 106:457 JLINK_ReadReg(FPS23)  returns 0x00000000 (0000ms, 2595ms total)
T16F4 106:457 JLINK_ReadReg(FPS24)  returns 0x00000000 (0000ms, 2595ms total)
T16F4 106:457 JLINK_ReadReg(FPS25)  returns 0x00000000 (0000ms, 2595ms total)
T16F4 106:457 JLINK_ReadReg(FPS26)  returns 0x00000000 (0000ms, 2595ms total)
T16F4 106:457 JLINK_ReadReg(FPS27)  returns 0x00000000 (0000ms, 2595ms total)
T16F4 106:457 JLINK_ReadReg(FPS28)  returns 0x00000000 (0000ms, 2595ms total)
T16F4 106:457 JLINK_ReadReg(FPS29)  returns 0x00000000 (0001ms, 2596ms total)
T16F4 106:458 JLINK_ReadReg(FPS30)  returns 0x00000000 (0000ms, 2596ms total)
T16F4 106:458 JLINK_ReadReg(FPS31)  returns 0xFFFFFFFF (0000ms, 2596ms total)
T16F4 106:458 JLINK_ReadMemEx(0x60002004, 0x0004 Bytes, ..., Flags = 0x02000000) -- CPU_ReadMem(4 bytes @ 0x60002004) - Data: 00 00 00 00  returns 0x04 (0000ms, 2596ms total)
T16F4 106:458 JLINK_WriteReg(R15 (PC), 0x00000000)  returns 0x00 (0000ms, 2596ms total)
T16F4 106:458 JLINK_ReadReg(R0)  returns 0x00000000 (0000ms, 2596ms total)
T16F4 106:458 JLINK_ReadReg(R1)  returns 0x00000000 (0000ms, 2596ms total)
T16F4 106:458 JLINK_ReadReg(R2)  returns 0x00000000 (0000ms, 2596ms total)
T16F4 106:458 JLINK_ReadReg(R3)  returns 0x00000000 (0000ms, 2596ms total)
T16F4 106:458 JLINK_ReadReg(R4)  returns 0x00000000 (0000ms, 2596ms total)
T16F4 106:458 JLINK_ReadReg(R5)  returns 0x00000000 (0000ms, 2596ms total)
T16F4 106:458 JLINK_ReadReg(R6)  returns 0x00000000 (0000ms, 2596ms total)
T16F4 106:458 JLINK_ReadReg(R7)  returns 0x00000000 (0000ms, 2596ms total)
T16F4 106:458 JLINK_ReadReg(R8)  returns 0x00000000 (0000ms, 2596ms total)
T16F4 106:458 JLINK_ReadReg(R9)  returns 0x00000000 (0001ms, 2597ms total)
T16F4 106:459 JLINK_ReadReg(R10)  returns 0x00000000 (0000ms, 2597ms total)
T16F4 106:459 JLINK_ReadReg(R11)  returns 0x00000000 (0000ms, 2597ms total)
T16F4 106:459 JLINK_ReadReg(R12)  returns 0x00000000 (0000ms, 2597ms total)
T16F4 106:459 JLINK_ReadReg(R13 (SP))  returns 0x02020202 (0000ms, 2597ms total)
T16F4 106:459 JLINK_ReadReg(R14)  returns 0xFFFFFFFF (0000ms, 2597ms total)
T16F4 106:459 JLINK_ReadReg(R15 (PC))  returns 0x00000000 (0000ms, 2597ms total)
T16F4 106:459 JLINK_ReadReg(XPSR)  returns 0x01000000 (0000ms, 2597ms total)
T16F4 106:459 JLINK_ReadReg(MSP)  returns 0x02020202 (0000ms, 2597ms total)
T16F4 106:459 JLINK_ReadReg(PSP)  returns 0x00000000 (0000ms, 2597ms total)
T16F4 106:459 JLINK_ReadReg(CFBP)  returns 0x00000000 (0000ms, 2597ms total)
T16F4 106:459 JLINK_ReadReg(FPSCR)  returns 0x00000000 (0000ms, 2597ms total)
T16F4 106:459 JLINK_ReadReg(FPS0)  returns 0x00000000 (0000ms, 2597ms total)
T16F4 106:459 JLINK_ReadReg(FPS1)  returns 0x00000000 (0000ms, 2597ms total)
T16F4 106:459 JLINK_ReadReg(FPS2)  returns 0x00000000 (0000ms, 2597ms total)
T16F4 106:459 JLINK_ReadReg(FPS3)  returns 0x00000000 (0000ms, 2597ms total)
T16F4 106:459 JLINK_ReadReg(FPS4)  returns 0x00000000 (0000ms, 2597ms total)
T16F4 106:459 JLINK_ReadReg(FPS5)  returns 0x00000000 (0000ms, 2597ms total)
T16F4 106:459 JLINK_ReadReg(FPS6)  returns 0x00000000 (0000ms, 2597ms total)
T16F4 106:459 JLINK_ReadReg(FPS7)  returns 0x00000000 (0000ms, 2597ms total)
T16F4 106:460 JLINK_ReadReg(FPS8)  returns 0x00000000 (0000ms, 2598ms total)
T16F4 106:460 JLINK_ReadReg(FPS9)  returns 0x00000000 (0000ms, 2598ms total)
T16F4 106:460 JLINK_ReadReg(FPS10)  returns 0x00000000 (0000ms, 2598ms total)
T16F4 106:460 JLINK_ReadReg(FPS11)  returns 0x00000000 (0000ms, 2598ms total)
T16F4 106:460 JLINK_ReadReg(FPS12)  returns 0x00000000 (0000ms, 2598ms total)
T16F4 106:460 JLINK_ReadReg(FPS13)  returns 0x00000000 (0000ms, 2598ms total)
T16F4 106:460 JLINK_ReadReg(FPS14)  returns 0x00000000 (0000ms, 2598ms total)
T16F4 106:460 JLINK_ReadReg(FPS15)  returns 0xFFFFFFFF (0000ms, 2598ms total)
T16F4 106:460 JLINK_ReadReg(FPS16)  returns 0x00000000 (0000ms, 2598ms total)
T16F4 106:460 JLINK_ReadReg(FPS17)  returns 0x00000000 (0000ms, 2598ms total)
T16F4 106:460 JLINK_ReadReg(FPS18)  returns 0x00000000 (0000ms, 2598ms total)
T16F4 106:460 JLINK_ReadReg(FPS19)  returns 0x00000000 (0000ms, 2598ms total)
T16F4 106:460 JLINK_ReadReg(FPS20)  returns 0x00000000 (0000ms, 2598ms total)
T16F4 106:460 JLINK_ReadReg(FPS21)  returns 0x00000000 (0000ms, 2598ms total)
